Wn	Wp	Vout	Vin
1	1.1	8.994985e-01	7.520000e-01
1	2.05	9.007918e-01	8.330000e-01
1	2.25	9.007324e-01	8.460000e-01
1	2.45	9.008985e-01	8.580000e-01
1	2.8	9.007100e-01	8.770000e-01
1	2.9	9.009469e-01	8.820000e-01
1	3.55	8.992143e-01	9.110000e-01
1	3.6	8.991297e-01	9.130000e-01
1	4.45	9.000272e-01	9.430000e-01
1	4.85	9.007280e-01	9.550000e-01
1.05	1	8.990185e-01	7.360000e-01
1.05	1.1	9.002813e-01	7.470000e-01
1.05	1.35	9.000198e-01	7.720000e-01
1.05	2.5	9.004002e-01	8.550000e-01
1.05	3.5	8.995559e-01	9.030000e-01
1.05	3.55	9.001220e-01	9.050000e-01
1.05	3.6	9.000826e-01	9.070000e-01
1.05	3.65	8.994470e-01	9.090000e-01
1.05	4	9.004726e-01	9.220000e-01
1.1	1.35	8.999754e-01	7.670000e-01
1.1	1.45	8.996589e-01	7.760000e-01
1.1	1.95	8.996637e-01	8.150000e-01
1.1	3.35	8.998634e-01	8.910000e-01
1.1	3.8	9.001060e-01	9.090000e-01
1.1	4.5	9.007537e-01	9.330000e-01
1.1	4.9	9.004568e-01	9.450000e-01
1.15	1.15	8.998752e-01	7.430000e-01
1.15	1.2	9.000694e-01	7.480000e-01
1.15	2.5	8.999008e-01	8.440000e-01
1.15	2.8	8.992743e-01	8.600000e-01
1.15	3.2	8.990589e-01	8.790000e-01
1.15	3.95	9.006763e-01	9.090000e-01
1.15	4.45	8.998361e-01	9.260000e-01
1.15	4.95	9.006281e-01	9.410000e-01
1.2	2.15	9.002292e-01	8.180000e-01
1.2	2.45	9.001792e-01	8.360000e-01
1.2	2.65	8.995528e-01	8.470000e-01
1.2	4.65	8.991187e-01	9.270000e-01
1.2	4.75	8.993901e-01	9.300000e-01
1.25	1	9.001638e-01	7.190000e-01
1.25	2.1	8.996438e-01	8.100000e-01
1.25	2.65	8.995316e-01	8.420000e-01
1.25	3.3	8.993201e-01	8.730000e-01
1.25	3.85	8.992535e-01	8.950000e-01
1.25	4.4	9.004078e-01	9.140000e-01
1.3	1.5	8.998605e-01	7.620000e-01
1.3	1.55	9.009790e-01	7.660000e-01
1.3	1.6	9.003350e-01	7.700000e-01
1.3	1.8	9.006684e-01	7.850000e-01
1.3	3.85	9.006472e-01	8.900000e-01
1.3	4.1	9.003463e-01	8.990000e-01
1.3	4.65	8.992333e-01	9.170000e-01
1.3	4.75	8.997627e-01	9.200000e-01
1.35	2.15	9.007625e-01	8.040000e-01
1.35	2.35	9.007306e-01	8.160000e-01
1.35	3.2	8.993717e-01	8.590000e-01
1.35	4.15	8.995607e-01	8.960000e-01
1.4	1.2	8.996375e-01	7.280000e-01
1.4	1.5	8.995215e-01	7.540000e-01
1.4	1.55	8.991807e-01	7.580000e-01
1.4	1.75	9.007109e-01	7.730000e-01
1.4	2.95	8.996446e-01	8.430000e-01
1.4	3.4	8.996448e-01	8.630000e-01
1.4	3.7	8.999115e-01	8.750000e-01
1.45	1	8.991179e-01	7.050000e-01
1.45	1.05	9.008424e-01	7.100000e-01
1.45	1.1	8.997400e-01	7.150000e-01
1.45	1.25	9.006373e-01	7.290000e-01
1.45	1.4	9.007779e-01	7.420000e-01
1.45	1.6	9.002067e-01	7.580000e-01
1.45	3	8.992641e-01	8.410000e-01
1.45	3.2	9.001479e-01	8.500000e-01
1.45	3.9	9.007577e-01	8.780000e-01
1.45	4.3	8.992591e-01	8.920000e-01
1.45	4.55	9.006314e-01	9.000000e-01
1.45	4.95	9.009004e-01	9.120000e-01
1.5	1.3	9.003255e-01	7.300000e-01
1.5	1.95	8.993721e-01	7.790000e-01
1.5	2.45	8.996735e-01	8.090000e-01
1.5	2.6	9.006235e-01	8.170000e-01
1.5	2.9	9.006353e-01	8.320000e-01
1.5	3.05	9.007860e-01	8.390000e-01
1.5	3.8	9.004762e-01	8.700000e-01
1.5	4.25	8.992398e-01	8.860000e-01
1.55	1.55	8.995138e-01	7.470000e-01
1.55	2.45	9.006209e-01	8.050000e-01
1.55	2.6	9.007244e-01	8.130000e-01
1.55	2.9	8.993532e-01	8.280000e-01
1.55	3.35	9.009779e-01	8.480000e-01
1.55	3.75	8.992975e-01	8.640000e-01
1.6	1.65	9.003752e-01	7.510000e-01
1.6	1.85	9.000379e-01	7.650000e-01
1.6	2.1	9.006014e-01	7.810000e-01
1.6	2.2	9.009018e-01	7.870000e-01
1.6	2.25	8.995515e-01	7.900000e-01
1.6	2.9	9.006740e-01	8.240000e-01
1.6	3.05	8.997043e-01	8.310000e-01
1.6	3.35	9.008268e-01	8.440000e-01
1.6	3.7	9.003714e-01	8.580000e-01
1.6	4.2	8.999968e-01	8.760000e-01
1.6	4.35	8.999485e-01	8.810000e-01
1.6	4.6	8.992778e-01	8.890000e-01
1.6	4.7	9.006881e-01	8.920000e-01
1.6	4.8	9.007670e-01	8.950000e-01
1.6	4.9	8.995464e-01	8.980000e-01
1.65	1	9.009143e-01	6.930000e-01
1.65	1.6	9.007950e-01	7.440000e-01
1.65	2.35	9.006251e-01	7.920000e-01
1.65	2.65	9.000043e-01	8.080000e-01
1.65	2.75	9.000115e-01	8.130000e-01
1.65	3.75	8.997586e-01	8.560000e-01
1.65	4.2	9.008681e-01	8.720000e-01
1.65	4.35	9.007046e-01	8.770000e-01
1.65	4.6	8.999149e-01	8.850000e-01
1.65	4.9	9.001387e-01	8.940000e-01
1.7	1.7	9.002805e-01	7.480000e-01
1.7	2.05	8.996260e-01	7.710000e-01
1.7	2.1	9.005148e-01	7.740000e-01
1.7	2.15	9.003807e-01	7.770000e-01
1.7	2.2	8.992561e-01	7.800000e-01
1.7	2.45	8.991367e-01	7.940000e-01
1.7	3.2	9.008260e-01	8.300000e-01
1.7	3.8	9.008143e-01	8.540000e-01
1.7	4.05	9.008528e-01	8.630000e-01
1.7	4.5	9.001349e-01	8.780000e-01
1.7	5	9.005102e-01	8.930000e-01
1.75	1.85	9.002964e-01	7.550000e-01
1.75	2.9	8.993444e-01	8.130000e-01
1.75	3.9	8.997768e-01	8.540000e-01
1.75	4.1	9.009982e-01	8.610000e-01
1.75	4.75	8.990132e-01	8.820000e-01
1.8	1.15	9.004189e-01	6.990000e-01
1.8	2.3	8.998678e-01	7.790000e-01
1.8	3.25	9.002864e-01	8.250000e-01
1.8	3.7	8.999349e-01	8.430000e-01
1.8	4.45	9.003916e-01	8.690000e-01
1.85	1.1	9.004143e-01	6.920000e-01
1.85	1.25	8.999338e-01	7.050000e-01
1.85	2.25	9.001245e-01	7.730000e-01
1.85	2.75	9.009176e-01	7.990000e-01
1.85	4.25	8.992125e-01	8.590000e-01
1.85	5	9.006316e-01	8.820000e-01
1.9	1.15	8.995535e-01	6.940000e-01
1.9	1.85	8.996109e-01	7.460000e-01
1.9	3.15	8.999855e-01	8.140000e-01
1.9	3.75	8.994709e-01	8.380000e-01
1.9	4	8.997968e-01	8.470000e-01
1.9	4.45	9.001843e-01	8.620000e-01
1.95	1.25	8.993232e-01	7.000000e-01
1.95	1.3	9.001848e-01	7.040000e-01
1.95	1.35	8.991781e-01	7.080000e-01
1.95	2.8	9.009557e-01	7.950000e-01
1.95	2.95	8.994369e-01	8.020000e-01
1.95	3.25	9.001424e-01	8.150000e-01
1.95	3.6	9.002398e-01	8.290000e-01
1.95	4.4	9.008761e-01	8.570000e-01
2	1.75	8.994261e-01	7.340000e-01
2	2.25	9.006395e-01	7.640000e-01
2	2.8	8.997465e-01	7.920000e-01
2	3.35	8.992746e-01	8.160000e-01
2	3.4	8.996016e-01	8.180000e-01
2	3.45	8.994466e-01	8.200000e-01
2	4.6	9.006457e-01	8.600000e-01
2	4.9	8.995746e-01	8.690000e-01
2.05	1.15	8.999739e-01	6.870000e-01
2.05	2.8	9.001815e-01	7.890000e-01
2.05	4.05	8.992434e-01	8.390000e-01
2.05	4.2	9.007546e-01	8.440000e-01
2.05	4.35	8.990956e-01	8.490000e-01
2.1	1.2	8.990289e-01	6.890000e-01
2.1	1.25	8.998069e-01	6.930000e-01
2.1	1.8	9.005125e-01	7.320000e-01
2.1	2.45	9.009126e-01	7.690000e-01
2.1	2.65	9.001232e-01	7.790000e-01
2.1	4.45	9.004367e-01	8.490000e-01
2.1	4.95	9.007413e-01	8.640000e-01
2.15	1.55	9.002399e-01	7.130000e-01
2.15	2.75	8.993952e-01	7.810000e-01
2.15	4.45	8.994021e-01	8.460000e-01
2.15	4.95	8.991191e-01	8.610000e-01
2.2	1.75	8.992841e-01	7.240000e-01
2.2	2.1	8.990366e-01	7.450000e-01
2.2	3.2	8.997703e-01	7.980000e-01
2.2	3.25	9.009093e-01	8.000000e-01
2.2	3.45	9.006808e-01	8.080000e-01
2.2	3.5	8.994739e-01	8.100000e-01
2.2	4.45	8.998033e-01	8.430000e-01
2.25	1.5	9.005766e-01	7.050000e-01
2.25	2.2	9.000589e-01	7.480000e-01
2.25	2.35	8.993987e-01	7.560000e-01
2.25	2.55	9.009668e-01	7.660000e-01
2.25	3.6	8.992407e-01	8.110000e-01
2.25	4.05	9.005667e-01	8.270000e-01
2.25	4.2	9.009625e-01	8.320000e-01
2.25	4.95	9.000969e-01	8.550000e-01
2.3	1	9.000830e-01	6.640000e-01
2.3	1.65	8.992973e-01	7.130000e-01
2.3	2.4	9.008404e-01	7.560000e-01
2.3	2.75	8.995383e-01	7.730000e-01
2.3	2.95	8.990427e-01	7.820000e-01
2.35	1.7	9.002692e-01	7.140000e-01
2.35	2.55	9.004866e-01	7.610000e-01
2.35	2.85	8.993927e-01	7.750000e-01
2.35	3.3	8.991320e-01	7.940000e-01
2.35	3.75	9.002455e-01	8.110000e-01
2.35	4.5	9.001032e-01	8.360000e-01
2.35	4.8	9.000497e-01	8.450000e-01
2.4	1.75	9.003216e-01	7.150000e-01
2.4	1.95	8.998003e-01	7.270000e-01
2.4	2.6	8.999512e-01	7.610000e-01
2.4	2.75	8.995553e-01	7.680000e-01
2.4	3	9.002615e-01	7.790000e-01
2.4	3.55	9.005506e-01	8.010000e-01
2.4	4.3	9.000821e-01	8.270000e-01
2.4	5	8.994005e-01	8.480000e-01
2.45	1.05	8.998362e-01	6.630000e-01
2.45	1.8	8.995142e-01	7.160000e-01
2.45	1.85	8.994897e-01	7.190000e-01
2.45	2.65	8.994347e-01	7.610000e-01
2.45	2.85	9.008992e-01	7.700000e-01
2.45	3.7	8.996634e-01	8.040000e-01
2.45	4.85	9.003518e-01	8.410000e-01
2.5	1.4	8.994215e-01	6.880000e-01
2.5	2.25	9.005877e-01	7.390000e-01
2.5	2.95	9.002818e-01	7.720000e-01
2.5	3.55	8.994054e-01	7.960000e-01
2.5	3.8	9.004841e-01	8.050000e-01
2.5	4.5	9.002521e-01	8.280000e-01
2.5	4.6	9.009110e-01	8.310000e-01
2.5	4.7	9.004511e-01	8.340000e-01
2.55	1.3	9.001927e-01	6.790000e-01
2.55	1.5	8.992390e-01	6.930000e-01
2.55	2.35	8.990726e-01	7.420000e-01
2.55	2.6	9.009827e-01	7.540000e-01
2.55	3.1	8.991887e-01	7.760000e-01
2.55	3.15	9.000514e-01	7.780000e-01
2.55	3.2	9.004403e-01	7.800000e-01
2.55	3.25	9.003660e-01	7.820000e-01
2.55	3.3	8.998384e-01	7.840000e-01
2.55	3.7	8.999236e-01	7.990000e-01
2.55	3.9	9.004331e-01	8.060000e-01
2.55	4.2	9.006074e-01	8.160000e-01
2.55	4.55	8.996318e-01	8.270000e-01
2.55	4.65	8.995711e-01	8.300000e-01
2.55	5	9.009027e-01	8.400000e-01
2.6	1.05	9.008489e-01	6.580000e-01
2.6	1.15	9.004199e-01	6.660000e-01
2.6	1.75	8.990350e-01	7.070000e-01
2.6	3.6	8.994340e-01	7.930000e-01
2.6	4	8.995634e-01	8.070000e-01
2.6	4.5	8.992868e-01	8.230000e-01
2.6	4.6	8.996225e-01	8.260000e-01
2.65	1.45	8.999975e-01	6.860000e-01
2.65	1.7	9.005811e-01	7.020000e-01
2.65	1.8	9.006324e-01	7.080000e-01
2.65	1.85	8.990899e-01	7.110000e-01
2.65	2.5	8.999695e-01	7.450000e-01
2.65	2.65	8.996535e-01	7.520000e-01
2.65	2.9	9.005359e-01	7.630000e-01
2.65	3.75	8.999243e-01	7.960000e-01
2.65	4.45	8.998418e-01	8.190000e-01
2.65	4.55	9.005708e-01	8.220000e-01
2.65	4.65	9.001966e-01	8.250000e-01
2.65	5	9.005634e-01	8.350000e-01
2.7	1.6	9.002215e-01	6.940000e-01
2.7	2.95	8.993819e-01	7.630000e-01
2.7	3.35	9.003350e-01	7.790000e-01
2.7	4.3	8.990011e-01	8.120000e-01
2.7	4.8	8.992126e-01	8.270000e-01
2.75	1.2	9.005067e-01	6.650000e-01
2.75	2.1	8.992763e-01	7.210000e-01
2.75	2.7	9.006411e-01	7.500000e-01
2.75	3.05	8.993551e-01	7.650000e-01
2.75	3.1	8.999672e-01	7.670000e-01
2.75	3.15	9.001130e-01	7.690000e-01
2.75	3.2	8.998032e-01	7.710000e-01
2.75	3.25	8.990478e-01	7.730000e-01
2.75	4.25	9.008653e-01	8.080000e-01
2.75	4.85	9.002250e-01	8.260000e-01
2.8	1.05	8.994915e-01	6.520000e-01
2.8	1.95	9.003885e-01	7.110000e-01
2.8	2.7	8.998757e-01	7.480000e-01
2.8	3.95	9.003819e-01	7.960000e-01
2.8	4.1	8.992913e-01	8.010000e-01
2.8	4.45	8.991728e-01	8.120000e-01
2.8	4.55	8.993860e-01	8.150000e-01
2.85	1.2	8.996668e-01	6.620000e-01
2.85	1.4	9.001021e-01	6.760000e-01
2.85	1.7	8.990272e-01	6.950000e-01
2.85	2.7	8.999720e-01	7.460000e-01
2.85	3.75	9.002979e-01	7.870000e-01
2.85	4.2	8.990574e-01	8.020000e-01
2.85	4.8	8.996043e-01	8.200000e-01
2.9	1.1	9.007368e-01	6.530000e-01
2.9	1.5	8.994884e-01	6.810000e-01
2.9	2.15	9.003212e-01	7.180000e-01
2.9	2.5	9.006121e-01	7.350000e-01
2.9	2.7	9.009020e-01	7.440000e-01
2.9	3.5	9.001634e-01	7.760000e-01
2.9	3.9	8.998525e-01	7.900000e-01
2.9	4.05	8.990443e-01	7.950000e-01
2.9	4.4	8.995901e-01	8.060000e-01
2.9	4.5	8.999950e-01	8.090000e-01
2.9	4.6	8.993289e-01	8.120000e-01
2.95	1.9	9.005369e-01	7.030000e-01
2.95	3.5	8.990775e-01	7.740000e-01
2.95	4.15	9.007878e-01	7.960000e-01
2.95	4.85	8.991024e-01	8.170000e-01
3	1.15	9.004806e-01	6.540000e-01
3	1.55	9.002886e-01	6.810000e-01
3	1.7	9.009610e-01	6.900000e-01
3	2.1	8.990918e-01	7.120000e-01
3	2.2	9.002248e-01	7.170000e-01
3	2.45	9.006159e-01	7.290000e-01
3	3.7	9.003690e-01	7.790000e-01
3	4.75	8.994709e-01	8.120000e-01
3.05	1.4	8.995918e-01	6.700000e-01
3.05	1.85	8.998101e-01	6.970000e-01
3.05	2.6	9.008761e-01	7.340000e-01
3.05	3.5	8.992715e-01	7.700000e-01
3.05	3.7	9.003094e-01	7.770000e-01
3.05	4.25	9.004126e-01	7.950000e-01
3.05	4.65	8.999541e-01	8.070000e-01
3.1	1.55	9.003825e-01	6.780000e-01
3.1	1.65	9.005483e-01	6.840000e-01
3.1	2.55	9.008924e-01	7.300000e-01
3.1	2.85	8.994143e-01	7.430000e-01
3.1	2.9	9.006504e-01	7.450000e-01
3.1	3.1	9.008754e-01	7.530000e-01
3.1	3.15	8.998100e-01	7.550000e-01
3.1	3.5	9.005026e-01	7.680000e-01
3.1	3.7	9.009998e-01	7.750000e-01
3.1	4.25	8.998528e-01	7.930000e-01
3.1	4.55	9.005241e-01	8.020000e-01
3.1	4.9	8.996004e-01	8.120000e-01
3.15	1.15	9.008679e-01	6.500000e-01
3.15	2.1	8.998546e-01	7.070000e-01
3.15	2.2	8.993739e-01	7.120000e-01
3.15	2.75	8.999407e-01	7.370000e-01
3.15	3.25	8.991094e-01	7.570000e-01
3.15	4.25	9.000241e-01	7.910000e-01
3.15	4.55	9.001376e-01	8.000000e-01
3.2	1.45	8.993557e-01	6.690000e-01
3.2	1.7	8.994903e-01	6.840000e-01
3.2	1.9	9.008177e-01	6.950000e-01
3.2	2.65	8.998764e-01	7.310000e-01
3.2	3.3	8.998790e-01	7.570000e-01
3.2	3.55	9.005969e-01	7.660000e-01
3.2	4.25	9.009042e-01	7.890000e-01
3.2	4.55	9.004611e-01	7.980000e-01
3.25	2.55	8.991225e-01	7.250000e-01
3.25	3.35	9.006258e-01	7.570000e-01
3.25	3.9	9.009149e-01	7.760000e-01
3.25	4.15	9.006654e-01	7.840000e-01
3.25	4.65	8.991090e-01	7.990000e-01
3.3	1.05	8.992332e-01	6.390000e-01
3.3	2.3	8.996384e-01	7.120000e-01
3.3	2.8	8.991632e-01	7.340000e-01
3.3	2.85	9.001443e-01	7.360000e-01
3.3	2.9	9.006433e-01	7.380000e-01
3.3	2.95	9.006736e-01	7.400000e-01
3.3	3	9.002473e-01	7.420000e-01
3.3	3.05	8.993760e-01	7.440000e-01
3.3	4.05	9.003773e-01	7.790000e-01
3.3	4.65	9.006218e-01	7.970000e-01
3.3	4.9	8.999936e-01	8.040000e-01
3.35	1	9.001228e-01	6.340000e-01
3.35	1.25	9.005504e-01	6.520000e-01
3.35	1.45	8.993528e-01	6.650000e-01
3.35	1.5	9.007776e-01	6.680000e-01
3.35	1.55	9.009352e-01	6.710000e-01
3.35	1.6	8.998969e-01	6.740000e-01
3.35	1.85	8.993540e-01	6.880000e-01
3.35	2.4	9.008595e-01	7.150000e-01
3.35	2.65	9.007387e-01	7.260000e-01
3.35	3.2	8.997392e-01	7.480000e-01
3.35	3.95	9.000062e-01	7.740000e-01
3.35	4.75	8.991318e-01	7.980000e-01
3.4	2.5	8.993278e-01	7.180000e-01
3.4	3.3	8.997865e-01	7.500000e-01
3.4	3.7	9.000558e-01	7.640000e-01
3.4	3.85	8.995172e-01	7.690000e-01
3.4	4.1	8.990868e-01	7.770000e-01
3.4	4.2	9.008362e-01	7.800000e-01
3.4	4.5	8.997050e-01	7.890000e-01
3.45	1.7	9.008087e-01	6.770000e-01
3.45	2.4	8.998868e-01	7.120000e-01
3.45	2.7	8.996338e-01	7.250000e-01
3.45	3	9.009249e-01	7.370000e-01
3.45	3.05	8.995488e-01	7.390000e-01
3.45	4	9.008607e-01	7.720000e-01
3.45	4.6	9.008042e-01	7.900000e-01
3.45	4.85	9.001281e-01	7.970000e-01
3.45	5	9.009905e-01	8.010000e-01
3.5	1.35	8.992046e-01	6.550000e-01
3.5	1.95	9.004920e-01	6.890000e-01
3.5	2.05	9.009765e-01	6.940000e-01
3.5	2.3	8.994405e-01	7.060000e-01
3.5	3.2	9.002706e-01	7.430000e-01
3.5	3.45	9.004078e-01	7.520000e-01
3.5	4.15	8.995408e-01	7.750000e-01
3.5	4.25	9.003414e-01	7.780000e-01
3.5	4.35	9.000893e-01	7.810000e-01
3.55	1.1	8.997736e-01	6.370000e-01
3.55	1.45	8.996250e-01	6.600000e-01
3.55	1.5	8.997341e-01	6.630000e-01
3.55	2.75	8.995314e-01	7.240000e-01
3.55	2.8	9.000896e-01	7.260000e-01
3.55	2.85	9.001703e-01	7.280000e-01
3.55	2.9	8.997870e-01	7.300000e-01
3.55	3.95	9.005643e-01	7.670000e-01
3.55	4.8	9.009681e-01	7.920000e-01
3.6	2.5	9.001206e-01	7.120000e-01
3.6	3.15	8.999657e-01	7.380000e-01
3.6	3.4	9.005406e-01	7.470000e-01
3.6	4.1	9.006944e-01	7.700000e-01
3.6	4.4	9.003679e-01	7.790000e-01
3.6	4.9	9.000975e-01	7.930000e-01
3.65	1.95	9.008481e-01	6.850000e-01
3.65	2.05	8.998378e-01	6.900000e-01
3.65	2.35	8.999919e-01	7.040000e-01
3.65	2.7	8.994724e-01	7.190000e-01
3.65	2.75	9.001606e-01	7.210000e-01
3.65	2.8	9.003641e-01	7.230000e-01
3.65	2.85	9.000970e-01	7.250000e-01
3.65	2.9	8.993723e-01	7.270000e-01
3.65	3.65	8.999567e-01	7.540000e-01
3.65	4.6	9.009411e-01	7.830000e-01
3.7	1.25	8.996289e-01	6.440000e-01
3.7	1.65	8.995928e-01	6.680000e-01
3.7	2.45	9.005356e-01	7.070000e-01
3.7	3.15	8.990062e-01	7.350000e-01
3.7	4.55	8.992701e-01	7.800000e-01
3.75	1.6	9.003369e-01	6.640000e-01
3.75	1.9	8.998314e-01	6.800000e-01
3.75	2	8.994407e-01	6.850000e-01
3.75	2.6	9.003409e-01	7.120000e-01
3.75	2.95	8.995082e-01	7.260000e-01
3.75	4.4	9.007238e-01	7.740000e-01
3.8	1.55	9.009676e-01	6.600000e-01
3.8	1.75	9.004693e-01	6.710000e-01
3.8	2.35	8.992004e-01	7.000000e-01
3.8	3.15	9.000643e-01	7.320000e-01
3.8	3.55	9.001451e-01	7.460000e-01
3.8	3.7	8.995399e-01	7.510000e-01
3.8	3.95	8.990362e-01	7.590000e-01
3.8	4.05	9.007781e-01	7.620000e-01
3.8	4.35	8.996620e-01	7.710000e-01
3.85	1.3	9.002864e-01	6.440000e-01
3.85	1.85	9.007343e-01	6.750000e-01
3.85	2.45	8.999514e-01	7.030000e-01
3.85	3	9.005184e-01	7.250000e-01
3.85	4	8.991881e-01	7.590000e-01
3.85	4.1	9.001796e-01	7.620000e-01
3.85	4.2	9.001154e-01	7.650000e-01
3.85	4.3	8.990327e-01	7.680000e-01
3.85	4.8	8.991239e-01	7.820000e-01
3.9	1.3	8.996378e-01	6.430000e-01
3.9	1.5	8.996040e-01	6.550000e-01
3.9	2.6	8.994474e-01	7.080000e-01
3.9	2.65	9.002473e-01	7.100000e-01
3.9	2.7	9.005486e-01	7.120000e-01
3.9	2.75	9.003667e-01	7.140000e-01
3.9	2.8	8.997160e-01	7.160000e-01
3.9	3.2	8.990566e-01	7.310000e-01
3.9	3.4	8.993869e-01	7.380000e-01
3.9	3.55	9.009605e-01	7.430000e-01
3.9	3.7	8.996302e-01	7.480000e-01
3.9	4.05	8.993362e-01	7.590000e-01
3.9	4.15	8.995950e-01	7.620000e-01
3.9	4.75	9.003460e-01	7.790000e-01
3.9	4.9	9.004409e-01	7.830000e-01
3.95	1.3	8.993533e-01	6.420000e-01
3.95	1.45	9.004569e-01	6.510000e-01
3.95	4.1	8.994805e-01	7.590000e-01
3.95	4.2	8.990240e-01	7.620000e-01
3.95	4.55	8.995685e-01	7.720000e-01
4	1.3	8.994239e-01	6.410000e-01
4	1.35	9.009164e-01	6.440000e-01
4	1.4	9.009658e-01	6.470000e-01
4	1.45	8.996649e-01	6.500000e-01
4	1.8	9.008590e-01	6.690000e-01
4	2.15	8.993226e-01	6.860000e-01
4	2.4	9.008038e-01	6.970000e-01
4	4.05	8.997601e-01	7.560000e-01
4	4.15	8.996211e-01	7.590000e-01
4.05	1	9.000699e-01	6.200000e-01
4.05	1.1	9.003882e-01	6.270000e-01
4.05	1.3	8.998411e-01	6.400000e-01
4.05	1.4	9.008089e-01	6.460000e-01
4.05	1.45	8.992288e-01	6.490000e-01
4.05	2.5	9.004179e-01	7.000000e-01
4.05	2.8	9.007449e-01	7.120000e-01
4.05	2.85	8.991532e-01	7.140000e-01
4.05	3.15	9.009032e-01	7.250000e-01
4.05	3.9	8.991737e-01	7.500000e-01
4.05	4	9.004223e-01	7.530000e-01
4.05	4.1	9.006040e-01	7.560000e-01
4.05	4.2	8.997583e-01	7.590000e-01
4.05	4.55	8.990506e-01	7.690000e-01
4.05	4.7	9.009790e-01	7.730000e-01
4.05	5	8.992133e-01	7.810000e-01
4.1	1.3	9.005965e-01	6.390000e-01
4.1	1.4	9.009965e-01	6.450000e-01
4.1	1.45	8.991401e-01	6.480000e-01
4.1	2.05	9.003223e-01	6.790000e-01
4.1	3.3	8.996211e-01	7.290000e-01
4.1	3.6	9.008111e-01	7.390000e-01
4.1	3.85	8.998697e-01	7.470000e-01
4.1	4.25	8.998922e-01	7.590000e-01
4.15	1.25	8.995187e-01	6.350000e-01
4.15	1.45	8.993907e-01	6.470000e-01
4.15	1.65	9.003104e-01	6.580000e-01
4.15	3	9.000537e-01	7.170000e-01
4.15	3.55	9.009492e-01	7.360000e-01
4.15	3.8	9.009216e-01	7.440000e-01
4.15	4.3	9.000227e-01	7.590000e-01
4.15	4.55	9.002816e-01	7.660000e-01
4.15	5	8.990614e-01	7.780000e-01
4.2	1.45	8.999727e-01	6.460000e-01
4.2	1.65	8.998850e-01	6.570000e-01
4.2	2.3	8.995988e-01	6.880000e-01
4.2	2.9	9.009305e-01	7.120000e-01
4.2	4.35	9.001502e-01	7.590000e-01
4.2	4.75	8.994293e-01	7.700000e-01
4.25	1.2	8.999884e-01	6.300000e-01
4.25	1.45	9.008781e-01	6.450000e-01
4.25	1.65	8.997933e-01	6.560000e-01
4.25	1.95	9.001845e-01	6.710000e-01
4.25	2.1	8.998686e-01	6.780000e-01
4.25	2.35	8.996696e-01	6.890000e-01
4.25	3.6	9.002479e-01	7.350000e-01
4.25	4.4	9.002746e-01	7.590000e-01
4.25	5	9.005855e-01	7.750000e-01
4.3	1.65	9.000276e-01	6.550000e-01
4.3	1.95	8.990996e-01	6.700000e-01
4.3	2.4	8.991600e-01	6.900000e-01
4.3	2.45	9.006834e-01	6.920000e-01
4.3	2.7	9.004908e-01	7.020000e-01
4.3	2.75	8.990077e-01	7.040000e-01
4.3	3.8	9.002224e-01	7.400000e-01
4.3	4.1	9.009513e-01	7.490000e-01
4.3	4.2	8.991520e-01	7.520000e-01
4.3	4.45	9.003961e-01	7.590000e-01
4.3	4.9	9.007822e-01	7.710000e-01
4.35	1.5	8.992022e-01	6.460000e-01
4.35	1.65	9.005806e-01	6.540000e-01
4.35	2.55	8.992050e-01	6.950000e-01
4.35	3.65	9.003363e-01	7.340000e-01
4.35	4.25	9.008497e-01	7.520000e-01
4.35	4.5	9.005148e-01	7.590000e-01
4.35	4.8	9.008871e-01	7.670000e-01
4.4	1.5	9.007801e-01	6.450000e-01
4.4	2.15	9.006721e-01	6.770000e-01
4.4	3.35	8.999460e-01	7.230000e-01
4.4	3.95	8.993069e-01	7.420000e-01
4.4	4.55	9.006307e-01	7.590000e-01
4.4	4.7	9.008810e-01	7.630000e-01
4.4	4.85	8.993105e-01	7.670000e-01
4.45	2.15	8.997955e-01	6.760000e-01
4.45	3.15	8.995470e-01	7.150000e-01
4.45	4.2	8.995362e-01	7.480000e-01
4.45	4.45	8.994726e-01	7.550000e-01
4.45	4.6	9.007440e-01	7.590000e-01
4.45	4.75	9.001463e-01	7.630000e-01
4.5	1.05	8.993377e-01	6.160000e-01
4.5	2.15	8.992343e-01	6.750000e-01
4.5	4.5	9.004548e-01	7.550000e-01
4.5	4.65	9.008546e-01	7.590000e-01
4.5	4.8	8.994265e-01	7.630000e-01
4.55	1.25	8.994043e-01	6.280000e-01
4.55	1.3	8.994442e-01	6.310000e-01
4.55	1.55	9.006999e-01	6.450000e-01
4.55	2.85	8.993927e-01	7.020000e-01
